EXPLAIN
TAG	EISPOT
TITLE	LABEL	Potentiostatic EIS	Test Identifier
DATE	LABEL	4/11/2025	Date
TIME	LABEL	11:33:56	Time
NOTES	NOTES	1	Notes...
	
PSTAT	PSTAT	REF3000-46189	Potentiostat
VDC	POTEN	2,36350E+000	F	Last Measured Potential (V)
FREQINIT	QUANT	1,00000E+004	Initial Freq. (Hz)
FREQFINAL	QUANT	7,00000E-001	Final Freq. (Hz)
PTSPERDEC	QUANT	1,00000E+001	Points/decade
VAC	QUANT	5,00000E+000	AC Voltage (mV rms)
AREA	QUANT	2,50000E+001	Sample Area (cm^2)
SPEED	SELECTOR	1	Optimize for:
DRIFTCOR	SELECTOR	0	Drift Correction
THD	SELECTOR	0	THD
ZGUESS	QUANT	2,00000E-002	Estimated Z (ohms)
EOC	QUANT	-0,0052215	Open Circuit (V)
SEQUENCER	TOGGLE	TRUE	Run as Sequence
PSTATMODEL	IQUANT	6	Pstat Model
PSTATSECTION	LABEL	REF30K-46189	Pstat Section
PSTATSERIALNO	LABEL	46189	Pstat Serial Number
CTRLMODE	IQUANT	1	Control Mode
ELECTROMETER	IQUANT	0	RE=0 or CS=1
IESTAB	IQUANT	0	I/E Stability
CASPEED	IQUANT	3	Control Amp Speed
CONVENTION	IQUANT	1	Current Convention
ICHRANGE	IQUANT	2	Ich Range
ICHRANGEMODE	TOGGLE	F	Ich Auto Range
ICHOFFSETENABLE	TOGGLE	T	Ich Offset Enable
ICHOFFSET	QUANT	0	Ich Offset (V)
ICHFILTER	IQUANT	3	Ich Filter
VCHRANGE	IQUANT	2	Vch Range
VCHRANGEMODE	TOGGLE	F	Vch Auto Range
VCHOFFSETENABLE	TOGGLE	T	Vch Offset Enable
VCHOFFSET	QUANT	0	Vch Offset (V)
VCHFILTER	IQUANT	3	Vch Filter
ACHRANGE	IQUANT	2	Ach Range
ACHOFFSETENABLE	TOGGLE	F	Ach Offset Enable
ACHOFFSET	QUANT	0	Ach Offset (V)
ACHFILTER	IQUANT	1	Ach Filter
IERANGELOWERLIMIT	IQUANT	13	I/E Range Lower Limit
IERANGEMODE	TOGGLE	F	I/E AutoRange
IERANGE	IQUANT	13	I/E Range
POSFEEDENABLE	TOGGLE	F	Positive Feedback IR Comp
POSFEEDRESISTANCE	QUANT	0	Positive Feedback Resistance (ohm)
ACHSELECT	IQUANT	4	Ach Select
SENSECABLEID	IQUANT	14	Sense Cable ID
PWRCABLEID	IQUANT	8	Power Cable ID
DCCALDATE	LABEL	10/1/2025	DC Calibration Date
ACCALDATE	LABEL	10/1/2025	AC Calibration Date
THERMOSELECT	IQUANT	1	Thermo Select
FRAMEWORKVERSION	LABEL	7.10.1	Framework Version
INSTRUMENTVERSION	LABEL	4.80	Instrument Version
COMMVERSION	LABEL	5.10	Communications Version
CPUPLDVERSION	LABEL	6.00	CPU PLD Version
CTRLPLDVERSION	LABEL	3.21	CTRL PLD Version
PSTATPLDVERSION	LABEL	0.00	PSTAT PLD Version
BOOSTERDCCALDATE	LABEL	10/1/2025	Booster DC Calibration Date
ZCURVE	TABLE
	Pt	Time	Freq	Zreal	Zimag	Zsig	Zmod	Zphz	Idc	Vdc	IERange	Imod	Vmod	Temp
	#	s	Hz	ohm	ohm	V	ohm	°	A	V	#	A	V	°C
	0	3	10078,13	0,0096752	0,0002271	1	0,0096778	1,34468	18,17308	2,35975	13	0,5163696	0,0049965	-327,609
	1	4	8015,625	0,0097195	2,581301E-005	1	0,0097196	0,152165	18,10126	2,359727	13	0,5572785	0,0054159	-327,609
	2	6	6328,125	0,0097777	-0,0001595	1	0,009779	-0,9345312	18,08866	2,359755	13	0,5430686	0,0053103	-327,609
	3	8	5015,625	0,0098489	-0,0003246	1	0,0098542	-1,887884	18,0801	2,359726	13	0,5283282	0,005206	-327,609
	4	9	3984,375	0,0099346	-0,0004705	1	0,0099458	-2,711303	18,0759	2,359739	13	0,5161642	0,0051335	-327,609
	5	11	3170,956	0,0100256	-0,0006078	1	0,010044	-3,469589	18,08821	2,359736	13	0,5055738	0,0050779	-327,609
	6	13	2527,573	0,0101313	-0,0007399	1	0,0101583	-4,176865	18,08933	2,359746	13	0,496448	0,005043	-327,609
	7	15	1976,103	0,0102584	-0,0008806	1	0,0102961	-4,906141	18,1065	2,359735	13	0,4879725	0,0050242	-327,609
	8	16	1577,524	0,0103962	-0,0010148	1	0,0104457	-5,575138	18,11779	2,35976	13	0,4795695	0,0050094	-327,609
	9	18	1265,625	0,0105392	-0,0011398	1	0,0106007	-6,17228	18,12106	2,359743	13	0,4716128	0,0049994	-327,609
	10	20	998,264	0,010713	-0,0012836	1	0,0107897	-6,832563	18,1365	2,359727	13	0,462939	0,0049949	-327,609
	11	21	796,875	0,0109076	-0,0014165	1	0,0109992	-7,39942	18,13648	2,359735	13	0,4544001	0,004998	-327,609
	12	23	627,7902	0,011124	-0,001567	1	0,0112338	-8,018171	18,15547	2,35972	13	0,4444638	0,004993	-327,609
	13	24	505,5147	0,0113466	-0,0017044	1	0,0114739	-8,542816	18,15593	2,359758	13	0,4282407	0,0049516	-327,609
	14	26	397,9953	0,0116111	-0,0018519	1	0,0117578	-9,061922	18,17939	2,359723	13	0,4263595	0,0050357	-327,609
	15	27	315,5048	0,0118963	-0,0020015	1	0,0120635	-9,55012	18,18311	2,359724	13	0,4137344	0,0050046	-327,609
	16	29	252,4038	0,0121894	-0,0021424	1	0,0123763	-9,96854	18,19911	2,359732	13	0,4028669	0,0049943	-327,609
	17	30	198,6229	0,0125321	-0,0022935	1	0,0127403	-10,37082	18,20708	2,359732	13	0,3915986	0,0049941	-327,609
	18	32	158,3615	0,012885	-0,0024301	1	0,0131122	-10,68038	18,21569	2,359724	13	0,3807412	0,0049955	-327,609
	19	33	125,558	0,0132741	-0,0025629	1	0,0135192	-10,92811	18,22334	2,35974	13	0,3692707	0,0049942	-327,609
	20	35	100,4464	0,0136709	-0,0026738	1	0,0139299	-11,06627	18,22856	2,359731	13	0,3585094	0,0049953	-327,609
	21	37	79,00281	0,0141136	-0,0027768	1	0,0143842	-11,13038	18,24522	2,359718	13	0,3473026	0,0049964	-327,609
	22	38	63,3446	0,014525	-0,0028567	1	0,0148033	-11,1266	18,25238	2,359721	13	0,3372789	0,0049933	-327,609
	23	40	50,22321	0,0149635	-0,0029388	1	0,0152494	-11,11137	18,26431	2,359723	13	0,3268747	0,0049849	-327,609
	24	42	38,42213	0,0154694	-0,003002	1	0,015758	-10,98219	18,27542	2,3597	13	0,3150281	0,0049644	-327,609
	25	43	31,25	0,0158313	-0,0030798	1	0,0161281	-11,00861	18,27883	2,359716	13	0,3059652	0,0049348	-327,609
	26	45	24,93351	0,0162794	-0,0031434	1	0,0165801	-10,92892	18,29393	2,359725	13	0,2922791	0,0048461	-327,609
	27	46	19,86229	0,0167248	-0,0032415	1	0,017036	-10,96882	18,28982	2,359708	13	0,3134963	0,0053408	-327,609
	28	48	15,625	0,0171993	-0,0033501	1	0,0175225	-11,02219	18,3052	2,359723	13	0,2854121	0,0050012	-327,609
	29	49	12,40079	0,0176841	-0,0034833	1	0,0180239	-11,1431	18,29493	2,359699	13	0,2782668	0,0050155	-327,609
	30	51	9,93114	0,0180688	-0,0036031	1	0,0184246	-11,27733	18,32287	2,359716	13	0,2703806	0,0049817	-327,609
	31	53	7,944915	0,0185885	-0,0037621	1	0,0189654	-11,44155	18,32778	2,359724	13	0,2640223	0,0050073	-327,609
	32	55	6,317385	0,0190741	-0,0039773	1	0,0194843	-11,77832	18,32452	2,359705	13	0,2565043	0,0049978	-327,609
	33	57	5,008013	0,0195504	-0,0041983	1	0,0199961	-12,11971	18,34218	2,359718	13	0,2499757	0,0049985	-327,609
	34	59	3,945707	0,0201725	-0,0044497	1	0,0206575	-12,43925	18,35512	2,359709	13	0,2422902	0,0050051	-327,609
	35	62	3,158693	0,0207553	-0,0046565	1	0,0212713	-12,64505	18,37267	2,359711	13	0,2349045	0,0049967	-327,609
	36	65	2,504006	0,0214873	-0,0049288	1	0,0220453	-12,91911	18,38247	2,359712	13	0,2194065	0,0048435	-327,609
	37	69	1,998082	0,0222278	-0,0052698	1	0,022844	-13,33761	18,40545	2,359704	13	0,2224475	0,0050862	-327,609
	38	73	1,584686	0,0228343	-0,005684	1	0,0235311	-13,97821	18,43413	2,359709	13	0,2137918	0,0050337	-327,609
	39	79	1,266892	0,0237075	-0,0058813	1	0,0244261	-13,93264	18,47162	2,359706	13	0,2053127	0,0050169	-327,609
	40	88	0,999041	0,0244708	-0,0063225	1	0,0252744	-14,48673	18,49196	2,359714	13	0,1979672	0,0050047	-327,609
	41	94	0,7923428	0,0255093	-0,0067609	1	0,0263901	-14,84414	18,52176	2,359699	13	0,189703	0,005007	-327,609
	42	102	0,6334459	0,0264526	-0,0069974	1	0,0273624	-14,81679	18,54768	2,359698	13	0,1828122	0,0050027	-327,609
