EXPLAIN
TAG	EISPOT
TITLE	LABEL	Potentiostatic EIS	Test Identifier
DATE	LABEL	4/11/2025	Date
TIME	LABEL	11:26:29	Time
NOTES	NOTES	1	Notes...
	
PSTAT	PSTAT	REF3000-46189	Potentiostat
VDC	POTEN	2,11115E+000	F	Last Measured Potential (V)
FREQINIT	QUANT	1,00000E+004	Initial Freq. (Hz)
FREQFINAL	QUANT	7,00000E-001	Final Freq. (Hz)
PTSPERDEC	QUANT	1,00000E+001	Points/decade
VAC	QUANT	5,00000E+000	AC Voltage (mV rms)
AREA	QUANT	2,50000E+001	Sample Area (cm^2)
SPEED	SELECTOR	1	Optimize for:
DRIFTCOR	SELECTOR	0	Drift Correction
THD	SELECTOR	0	THD
ZGUESS	QUANT	2,00000E-002	Estimated Z (ohms)
EOC	QUANT	-0,0052215	Open Circuit (V)
SEQUENCER	TOGGLE	TRUE	Run as Sequence
PSTATMODEL	IQUANT	6	Pstat Model
PSTATSECTION	LABEL	REF30K-46189	Pstat Section
PSTATSERIALNO	LABEL	46189	Pstat Serial Number
CTRLMODE	IQUANT	1	Control Mode
ELECTROMETER	IQUANT	0	RE=0 or CS=1
IESTAB	IQUANT	0	I/E Stability
CASPEED	IQUANT	3	Control Amp Speed
CONVENTION	IQUANT	1	Current Convention
ICHRANGE	IQUANT	2	Ich Range
ICHRANGEMODE	TOGGLE	F	Ich Auto Range
ICHOFFSETENABLE	TOGGLE	T	Ich Offset Enable
ICHOFFSET	QUANT	0	Ich Offset (V)
ICHFILTER	IQUANT	3	Ich Filter
VCHRANGE	IQUANT	2	Vch Range
VCHRANGEMODE	TOGGLE	F	Vch Auto Range
VCHOFFSETENABLE	TOGGLE	T	Vch Offset Enable
VCHOFFSET	QUANT	0	Vch Offset (V)
VCHFILTER	IQUANT	3	Vch Filter
ACHRANGE	IQUANT	2	Ach Range
ACHOFFSETENABLE	TOGGLE	F	Ach Offset Enable
ACHOFFSET	QUANT	0	Ach Offset (V)
ACHFILTER	IQUANT	1	Ach Filter
IERANGELOWERLIMIT	IQUANT	13	I/E Range Lower Limit
IERANGEMODE	TOGGLE	F	I/E AutoRange
IERANGE	IQUANT	13	I/E Range
POSFEEDENABLE	TOGGLE	F	Positive Feedback IR Comp
POSFEEDRESISTANCE	QUANT	0	Positive Feedback Resistance (ohm)
ACHSELECT	IQUANT	4	Ach Select
SENSECABLEID	IQUANT	14	Sense Cable ID
PWRCABLEID	IQUANT	8	Power Cable ID
DCCALDATE	LABEL	10/1/2025	DC Calibration Date
ACCALDATE	LABEL	10/1/2025	AC Calibration Date
THERMOSELECT	IQUANT	1	Thermo Select
FRAMEWORKVERSION	LABEL	7.10.1	Framework Version
INSTRUMENTVERSION	LABEL	4.80	Instrument Version
COMMVERSION	LABEL	5.10	Communications Version
CPUPLDVERSION	LABEL	6.00	CPU PLD Version
CTRLPLDVERSION	LABEL	3.21	CTRL PLD Version
PSTATPLDVERSION	LABEL	0.00	PSTAT PLD Version
BOOSTERDCCALDATE	LABEL	10/1/2025	Booster DC Calibration Date
ZCURVE	TABLE
	Pt	Time	Freq	Zreal	Zimag	Zsig	Zmod	Zphz	Idc	Vdc	IERange	Imod	Vmod	Temp
	#	s	Hz	ohm	ohm	V	ohm	°	A	V	#	A	V	°C
	0	2	10078,13	0,0105858	-0,0004262	1	0,0105944	-2,305528	8,772574	2,108105	13	0,4718804	0,0049984	-327,609
	1	4	8015,625	0,0107548	-0,0007299	1	0,0107796	-3,882289	8,746207	2,108083	13	0,511412	0,0055122	-327,609
	2	6	6328,125	0,0109641	-0,0010126	1	0,0110108	-5,276677	8,735055	2,108093	13	0,4872231	0,0053644	-327,609
	3	8	5015,625	0,0112071	-0,0012672	1	0,0112786	-6,451084	8,722673	2,108096	13	0,4638633	0,0052315	-327,609
	4	9	3984,375	0,0114842	-0,0014868	1	0,0115801	-7,376602	8,722487	2,108073	13	0,4429797	0,0051296	-327,609
	5	11	3170,956	0,0117936	-0,0016776	1	0,0119123	-8,095778	8,717488	2,108104	13	0,4250095	0,0050628	-327,609
	6	13	2527,573	0,0121245	-0,0018289	1	0,0122617	-8,578121	8,714248	2,108078	13	0,4095928	0,0050223	-327,609
	7	14	1976,103	0,0125061	-0,0019452	1	0,0126565	-8,84113	8,719409	2,108108	13	0,3951091	0,0050007	-327,609
	8	16	1577,524	0,0128751	-0,0020116	1	0,0130313	-8,8803	8,715592	2,108099	13	0,3830775	0,004992	-327,609
	9	17	1265,625	0,0132126	-0,0020472	1	0,0133703	-8,807429	8,720598	2,10811	13	0,3730287	0,0049875	-327,609
	10	19	998,264	0,0135719	-0,0020487	1	0,0137257	-8,584173	8,711885	2,108074	13	0,3635313	0,0049897	-327,609
	11	20	796,875	0,0138746	-0,0020224	1	0,0140212	-8,293288	8,717403	2,108088	13	0,3557633	0,0049882	-327,609
	12	22	627,7902	0,0141828	-0,0020013	1	0,0143234	-8,031872	8,710505	2,108099	13	0,3482623	0,0049883	-327,609
	13	23	505,5147	0,0144276	-0,0019998	1	0,0145655	-7,89145	8,714069	2,10809	13	0,3375472	0,0049546	-327,609
	14	25	397,9953	0,0146873	-0,0020186	1	0,0148253	-7,825471	8,706666	2,108091	13	0,3381015	0,0050351	-327,609
	15	27	315,5048	0,0149242	-0,0020673	1	0,0150667	-7,886436	8,710301	2,108082	13	0,3312633	0,0050045	-327,609
	16	28	252,4038	0,0151604	-0,0021534	1	0,0153126	-8,084115	8,70848	2,108074	13	0,3257663	0,0049966	-327,609
	17	30	198,6229	0,01544	-0,002287	1	0,0156085	-8,425529	8,703809	2,108087	13	0,3195389	0,0049925	-327,609
	18	31	158,3615	0,0157323	-0,0024503	1	0,015922	-8,852625	8,705171	2,108093	13	0,3135729	0,0049958	-327,609
	19	33	125,558	0,0160905	-0,0026433	1	0,0163062	-9,328933	8,698483	2,108098	13	0,3062274	0,0049954	-327,609
	20	34	100,4464	0,0164899	-0,0028393	1	0,0167325	-9,7698	8,699965	2,108083	13	0,2984643	0,0049953	-327,609
	21	36	79,00281	0,0169931	-0,0030406	1	0,017263	-10,14457	8,691977	2,108075	13	0,2893816	0,0049964	-327,609
	22	38	63,3446	0,0175062	-0,0031946	1	0,0177953	-10,34194	8,695875	2,1081	13	0,2805877	0,0049936	-327,609
	23	39	50,22321	0,0181061	-0,0032999	1	0,0184044	-10,32904	8,691671	2,108073	13	0,2709261	0,0049865	-327,609
	24	41	38,42213	0,0188246	-0,003321	1	0,0191153	-10,00503	8,684909	2,108058	13	0,2597302	0,004965	-327,609
	25	43	31,25	0,0193768	-0,003277	1	0,0196519	-9,59892	8,690852	2,10809	13	0,2510172	0,0049331	-327,609
	26	44	24,93351	0,0199575	-0,0031629	1	0,0202066	-9,005535	8,680647	2,108089	13	0,2397319	0,0048442	-327,609
	27	46	19,86229	0,0204732	-0,0029877	1	0,02069	-8,302811	8,68265	2,108052	13	0,2582446	0,0053431	-327,609
	28	47	15,625	0,0210161	-0,0027944	1	0,0212011	-7,573971	8,676377	2,108088	13	0,2360589	0,0050047	-327,609
	29	49	12,40079	0,0213686	-0,0025956	1	0,0215257	-6,92554	8,675211	2,108066	13	0,2321097	0,0049963	-327,609
	30	51	9,93114	0,0217617	-0,0024037	1	0,0218941	-6,30301	8,672623	2,108063	13	0,2277482	0,0049864	-327,609
	31	52	7,944915	0,0220257	-0,0022145	1	0,0221368	-5,741253	8,667602	2,10808	13	0,226354	0,0050108	-327,609
	32	54	6,317385	0,0223436	-0,0020423	1	0,0224368	-5,222633	8,668079	2,108078	13	0,2227761	0,0049984	-327,609
	33	56	5,008013	0,0225766	-0,0019139	1	0,0226576	-4,845669	8,663508	2,10807	13	0,2208935	0,0050049	-327,609
	34	59	3,945707	0,0227723	-0,0017865	1	0,0228423	-4,485723	8,661508	2,108081	13	0,2187745	0,0049973	-327,609
	35	61	3,158693	0,0230469	-0,0016907	1	0,0231088	-4,195684	8,658437	2,108069	13	0,2165256	0,0050037	-327,609
	36	64	2,504006	0,023189	-0,0016258	1	0,0232459	-4,010471	8,656533	2,108079	13	0,208195	0,0048463	-327,609
	37	68	1,998082	0,0234077	-0,0015856	1	0,0234614	-3,875152	8,647635	2,108088	13	0,2164653	0,0050832	-327,609
	38	74	1,584686	0,0236013	-0,0015938	1	0,0236551	-3,863391	8,64018	2,10809	13	0,2131274	0,0050445	-327,609
	39	78	1,266892	0,0237799	-0,0016306	1	0,0238358	-3,922573	8,634243	2,108087	13	0,2103617	0,005016	-327,609
	40	85	0,999041	0,0240079	-0,00162	1	0,0240624	-3,860332	8,624775	2,108076	13	0,2080027	0,0050062	-327,609
	41	90	0,7923428	0,0242458	-0,0016682	1	0,0243031	-3,935993	8,614722	2,10808	13	0,2057344	0,0050007	-327,609
	42	98	0,6334459	0,0245064	-0,0017074	1	0,0245658	-3,985341	8,599222	2,108079	13	0,2035927	0,0050019	-327,609
