EXPLAIN
TAG	EISPOT
TITLE	LABEL	Potentiostatic EIS	Test Identifier
DATE	LABEL	4/11/2025	Date
TIME	LABEL	11:19:05	Time
NOTES	NOTES	1	Notes...
	
PSTAT	PSTAT	REF3000-46189	Potentiostat
VDC	POTEN	1,83311E+000	F	Last Measured Potential (V)
FREQINIT	QUANT	1,00000E+004	Initial Freq. (Hz)
FREQFINAL	QUANT	7,00000E-001	Final Freq. (Hz)
PTSPERDEC	QUANT	1,00000E+001	Points/decade
VAC	QUANT	5,00000E+000	AC Voltage (mV rms)
AREA	QUANT	2,50000E+001	Sample Area (cm^2)
SPEED	SELECTOR	1	Optimize for:
DRIFTCOR	SELECTOR	0	Drift Correction
THD	SELECTOR	0	THD
ZGUESS	QUANT	2,00000E-002	Estimated Z (ohms)
EOC	QUANT	-0,0052215	Open Circuit (V)
SEQUENCER	TOGGLE	TRUE	Run as Sequence
PSTATMODEL	IQUANT	6	Pstat Model
PSTATSECTION	LABEL	REF30K-46189	Pstat Section
PSTATSERIALNO	LABEL	46189	Pstat Serial Number
CTRLMODE	IQUANT	1	Control Mode
ELECTROMETER	IQUANT	0	RE=0 or CS=1
IESTAB	IQUANT	0	I/E Stability
CASPEED	IQUANT	3	Control Amp Speed
CONVENTION	IQUANT	1	Current Convention
ICHRANGE	IQUANT	2	Ich Range
ICHRANGEMODE	TOGGLE	F	Ich Auto Range
ICHOFFSETENABLE	TOGGLE	T	Ich Offset Enable
ICHOFFSET	QUANT	0	Ich Offset (V)
ICHFILTER	IQUANT	3	Ich Filter
VCHRANGE	IQUANT	2	Vch Range
VCHRANGEMODE	TOGGLE	F	Vch Auto Range
VCHOFFSETENABLE	TOGGLE	T	Vch Offset Enable
VCHOFFSET	QUANT	0	Vch Offset (V)
VCHFILTER	IQUANT	3	Vch Filter
ACHRANGE	IQUANT	2	Ach Range
ACHOFFSETENABLE	TOGGLE	F	Ach Offset Enable
ACHOFFSET	QUANT	0	Ach Offset (V)
ACHFILTER	IQUANT	1	Ach Filter
IERANGELOWERLIMIT	IQUANT	13	I/E Range Lower Limit
IERANGEMODE	TOGGLE	F	I/E AutoRange
IERANGE	IQUANT	13	I/E Range
POSFEEDENABLE	TOGGLE	F	Positive Feedback IR Comp
POSFEEDRESISTANCE	QUANT	0	Positive Feedback Resistance (ohm)
ACHSELECT	IQUANT	4	Ach Select
SENSECABLEID	IQUANT	14	Sense Cable ID
PWRCABLEID	IQUANT	8	Power Cable ID
DCCALDATE	LABEL	10/1/2025	DC Calibration Date
ACCALDATE	LABEL	10/1/2025	AC Calibration Date
THERMOSELECT	IQUANT	1	Thermo Select
FRAMEWORKVERSION	LABEL	7.10.1	Framework Version
INSTRUMENTVERSION	LABEL	4.80	Instrument Version
COMMVERSION	LABEL	5.10	Communications Version
CPUPLDVERSION	LABEL	6.00	CPU PLD Version
CTRLPLDVERSION	LABEL	3.21	CTRL PLD Version
PSTATPLDVERSION	LABEL	0.00	PSTAT PLD Version
BOOSTERDCCALDATE	LABEL	10/1/2025	Booster DC Calibration Date
ZCURVE	TABLE
	Pt	Time	Freq	Zreal	Zimag	Zsig	Zmod	Zphz	Idc	Vdc	IERange	Imod	Vmod	Temp
	#	s	Hz	ohm	ohm	V	ohm	°	A	V	#	A	V	°C
	0	3	10078,13	0,0102695	-0,0009017	1	0,010309	-5,017836	1,350425	1,830485	13	0,4843706	0,0049925	-327,609
	1	5	8015,625	0,0104138	-0,0013643	1	0,0105028	-7,4636	1,348122	1,830489	13	0,5023867	0,0052759	-327,609
	2	7	6328,125	0,0106009	-0,00187	1	0,0107646	-10,00403	1,347593	1,830474	13	0,4813401	0,0051811	-327,609
	3	8	5015,625	0,0108401	-0,0023985	1	0,0111023	-12,47637	1,347707	1,830474	13	0,4584934	0,0050901	-327,609
	4	10	3984,375	0,0111447	-0,0029794	1	0,0115361	-14,96737	1,344457	1,830482	13	0,4365441	0,0050359	-327,609
	5	11	3170,956	0,0115278	-0,0036024	1	0,0120775	-17,35411	1,344406	1,830489	13	0,4141776	0,0050022	-327,609
	6	13	2527,573	0,0120031	-0,0042872	1	0,0127457	-19,65541	1,342603	1,830474	13	0,3911417	0,0049853	-327,609
	7	15	1976,103	0,0126627	-0,0050878	1	0,0136466	-21,89	1,342434	1,830491	13	0,3642243	0,0049704	-327,609
	8	16	1577,524	0,0134103	-0,0058677	1	0,0146378	-23,63194	1,343354	1,830497	13	0,3396066	0,0049711	-327,609
	9	18	1265,625	0,0143181	-0,0066496	1	0,0157869	-24,91088	1,341213	1,830495	13	0,315181	0,0049757	-327,609
	10	20	998,264	0,0154787	-0,0074818	1	0,0171921	-25,79732	1,342501	1,830473	13	0,2894964	0,004977	-327,609
	11	21	796,875	0,0167682	-0,0082196	1	0,0186744	-26,11366	1,339561	1,830496	13	0,2665792	0,0049782	-327,609
	12	23	627,7902	0,0183019	-0,0088438	1	0,0203267	-25,79056	1,340633	1,83049	13	0,2453128	0,0049864	-327,609
	13	24	505,5147	0,0198136	-0,0093075	1	0,0218908	-25,16194	1,338869	1,830464	13	0,2245845	0,0049543	-327,609
	14	26	397,9953	0,0215458	-0,0096344	1	0,0236018	-24,09224	1,339255	1,830475	13	0,2124385	0,0050365	-327,609
	15	27	315,5048	0,023232	-0,0097933	1	0,0252118	-22,85743	1,337821	1,830495	13	0,1978586	0,0050018	-327,609
	16	29	252,4038	0,0247942	-0,0098328	1	0,0266727	-21,63204	1,337177	1,830486	13	0,1869935	0,004996	-327,609
	17	30	198,6229	0,026369	-0,0097883	1	0,0281272	-20,36522	1,337762	1,830478	13	0,177345	0,0049932	-327,609
	18	32	158,3615	0,0277658	-0,0097447	1	0,0294262	-19,33907	1,336389	1,830483	13	0,1695721	0,004993	-327,609
	19	34	125,558	0,0290813	-0,0097214	1	0,0306631	-18,48403	1,336524	1,83046	13	0,1627576	0,0049926	-327,609
	20	35	100,4464	0,0303167	-0,0098147	1	0,0318658	-17,93887	1,333221	1,830475	13	0,1568006	0,0049978	-327,609
	21	37	79,00281	0,0315656	-0,010014	1	0,033116	-17,60132	1,333269	1,830474	13	0,1507875	0,0049942	-327,609
	22	39	63,3446	0,0327287	-0,0103361	1	0,034322	-17,52671	1,333387	1,830468	13	0,1454663	0,0049932	-327,609
	23	40	50,22321	0,0340057	-0,0108334	1	0,0356896	-17,67068	1,331738	1,830472	13	0,1396833	0,0049856	-327,609
	24	42	38,42213	0,0355804	-0,0115965	1	0,0374225	-18,05203	1,334167	1,830489	13	0,1327191	0,0049669	-327,609
	25	43	31,25	0,0369651	-0,0123307	1	0,0389675	-18,44746	1,330112	1,830472	13	0,1265875	0,0049329	-327,609
	26	45	24,93351	0,0386215	-0,0132372	1	0,040827	-18,91868	1,330744	1,830464	13	0,1187211	0,0048471	-327,609
	27	47	19,86229	0,0405572	-0,0142768	1	0,0429967	-19,39288	1,329754	1,830454	13	0,1240924	0,0053356	-327,609
	28	48	15,625	0,042848	-0,0153955	1	0,0455299	-19,76367	1,329846	1,830459	13	0,1099374	0,0050055	-327,609
	29	50	12,40079	0,0453386	-0,0164903	1	0,0482444	-19,98708	1,3292	1,830464	13	0,103761	0,0050059	-327,609
	30	51	9,93114	0,0479707	-0,0174078	1	0,0510316	-19,94504	1,328825	1,830458	13	0,0979831	0,0050002	-327,609
	31	53	7,944915	0,0509185	-0,0181643	1	0,0540614	-19,63298	1,331988	1,830464	13	0,0923323	0,0049916	-327,609
	32	55	6,317385	0,0543617	-0,018766	1	0,0575096	-19,04505	1,329481	1,830471	13	0,0870335	0,0050053	-327,609
	33	57	5,008013	0,057913	-0,0188798	1	0,0609127	-18,05614	1,327755	1,830465	13	0,0821015	0,005001	-327,609
	34	60	3,945707	0,06173	-0,0186087	1	0,0644738	-16,77562	1,327111	1,830465	13	0,0776132	0,005004	-327,609
	35	63	3,158693	0,065148	-0,0178552	1	0,0675505	-15,32674	1,325458	1,830471	13	0,0738629	0,0049895	-327,609
	36	66	2,504006	0,0685087	-0,016396	1	0,0704434	-13,45932	1,324968	1,830468	13	0,0687161	0,0048472	-327,609
	37	69	1,998082	0,0710855	-0,0148249	1	0,072615	-11,78023	1,323663	1,830462	13	0,0700221	0,0050893	-327,609
	38	73	1,584686	0,0734029	-0,0130755	1	0,0745584	-10,10037	1,320664	1,830467	13	0,0675783	0,0050415	-327,609
	39	80	1,266892	0,0753583	-0,0112667	1	0,0761959	-8,503224	1,31787	1,830467	13	0,0658429	0,0050188	-327,609
	40	85	0,999041	0,0766004	-0,0092594	1	0,077158	-6,892441	1,314119	1,830466	13	0,0647574	0,0049977	-327,609
	41	91	0,7923428	0,0773129	-0,0079497	1	0,0777206	-5,870811	1,310803	1,830464	13	0,064392	0,0050053	-327,609
	42	99	0,6334459	0,0782919	-0,0070028	1	0,0786044	-5,111173	1,307065	1,830461	13	0,0636382	0,0050027	-327,609
